             * c:\users\dell\esim-workspace\resistors\resistors.cir
             Transient Analysis  Sat Oct 08 22:36:24  2022
--------------------------------------------------------------------------------
Index   time            a2#branch_1_0   a2#branch_1_1   a2#branch_1_2   
--------------------------------------------------------------------------------
0	0.000000e+00	0.000000e+00	0.000000e+00	0.000000e+00	
1	1.000000e-03	4.616600e-29	4.632290e-29	5.048710e-29	
2	2.000000e-03	4.616600e-29	-5.46513e-29	5.048710e-29	
3	4.000000e-03	-4.32110e-30	4.632290e-29	0.000000e+00	
4	8.000000e-03	2.308300e-29	-2.08210e-30	-2.52435e-29	
5	1.600000e-02	-1.37020e-29	6.206782e-29	2.524355e-29	
6	3.200000e-02	1.208164e-29	-5.20524e-31	-1.26218e-29	
7	6.400000e-02	-9.73640e-30	-6.57115e-30	1.262177e-29	
8	1.280000e-01	-2.06454e-29	3.025313e-30	-4.73317e-30	
9	2.560000e-01	1.510205e-30	2.301517e-30	1.577722e-30	
10	4.560000e-01	-1.47894e-30	-1.08294e-30	-3.94430e-31	
11	6.560000e-01	-7.39539e-30	1.003530e-31	3.944305e-31	
12	8.560000e-01	9.878399e-32	1.003530e-31	0.000000e+00	
13	1.056000e+00	9.878399e-32	1.003530e-31	0.000000e+00	
14	1.256000e+00	9.878399e-32	1.003530e-31	0.000000e+00	
15	1.456000e+00	9.878399e-32	1.003530e-31	0.000000e+00	
16	1.656000e+00	9.878399e-32	1.003530e-31	0.000000e+00	
17	1.856000e+00	9.878399e-32	1.003530e-31	0.000000e+00	
18	2.056000e+00	9.878399e-32	1.003530e-31	0.000000e+00	
19	2.256000e+00	9.878399e-32	1.003530e-31	0.000000e+00	
20	2.456000e+00	9.878399e-32	1.003530e-31	0.000000e+00	
21	2.656000e+00	9.878399e-32	1.003530e-31	0.000000e+00	
22	2.856000e+00	9.878399e-32	1.003530e-31	0.000000e+00	
23	3.056000e+00	9.878399e-32	1.003530e-31	0.000000e+00	
24	3.256000e+00	9.878399e-32	1.003530e-31	0.000000e+00	
25	3.456000e+00	9.878399e-32	1.003530e-31	0.000000e+00	
26	3.656000e+00	9.878399e-32	1.003530e-31	0.000000e+00	
27	3.856000e+00	9.878399e-32	1.003530e-31	0.000000e+00	
28	4.056000e+00	9.878399e-32	1.003530e-31	0.000000e+00	
29	4.256000e+00	9.878399e-32	1.003530e-31	0.000000e+00	
30	4.456000e+00	9.878399e-32	1.003530e-31	0.000000e+00	
31	4.656000e+00	9.878399e-32	1.003530e-31	0.000000e+00	
32	4.856000e+00	9.878399e-32	1.003530e-31	0.000000e+00	
33	5.056000e+00	9.878399e-32	1.003530e-31	0.000000e+00	
34	5.256000e+00	9.878399e-32	1.003530e-31	0.000000e+00	
35	5.456000e+00	9.878399e-32	1.003530e-31	0.000000e+00	
36	5.656000e+00	9.878399e-32	1.003530e-31	0.000000e+00	
37	5.856000e+00	9.878399e-32	1.003530e-31	0.000000e+00	
38	6.056000e+00	9.878399e-32	1.003530e-31	0.000000e+00	
39	6.256000e+00	9.878399e-32	1.003530e-31	0.000000e+00	
40	6.456000e+00	9.878399e-32	1.003530e-31	0.000000e+00	
41	6.656000e+00	9.878399e-32	1.003530e-31	0.000000e+00	
42	6.856000e+00	9.878399e-32	1.003530e-31	0.000000e+00	
43	7.056000e+00	9.878399e-32	1.003530e-31	0.000000e+00	
44	7.256000e+00	9.878399e-32	1.003530e-31	0.000000e+00	
45	7.456000e+00	9.878399e-32	1.003530e-31	0.000000e+00	
46	7.656000e+00	9.878399e-32	1.003530e-31	0.000000e+00	
47	7.856000e+00	9.878399e-32	1.003530e-31	0.000000e+00	
48	8.056000e+00	9.878399e-32	1.003530e-31	0.000000e+00	
49	8.256000e+00	9.878399e-32	1.003530e-31	0.000000e+00	
50	8.456000e+00	9.878399e-32	1.003530e-31	0.000000e+00	
51	8.656000e+00	9.878399e-32	1.003530e-31	0.000000e+00	
52	8.856000e+00	9.878399e-32	1.003530e-31	0.000000e+00	
53	9.056000e+00	9.878399e-32	1.003530e-31	0.000000e+00	
54	9.256000e+00	9.878399e-32	1.003530e-31	0.000000e+00	

Index   time            a2#branch_1_0   a2#branch_1_1   a2#branch_1_2   
--------------------------------------------------------------------------------
55	9.456000e+00	9.878399e-32	1.003530e-31	0.000000e+00	
56	9.656000e+00	9.878399e-32	1.003530e-31	0.000000e+00	
57	9.856000e+00	9.878399e-32	1.003530e-31	0.000000e+00	
58	1.000000e+01	-4.98271e-31	-8.90523e-31	7.888609e-31	

             * c:\users\dell\esim-workspace\resistors\resistors.cir
             Transient Analysis  Sat Oct 08 22:36:24  2022
--------------------------------------------------------------------------------
Index   time            a2#branch_1_3   a2#branch_1_4   a2#branch_1_5   
--------------------------------------------------------------------------------
0	0.000000e+00	0.000000e+00	0.000000e+00	0.000000e+00	
1	1.000000e-03	5.048710e-29	5.048710e-29	5.048710e-29	
2	2.000000e-03	5.048710e-29	5.048710e-29	-5.04871e-29	
3	4.000000e-03	0.000000e+00	0.000000e+00	5.048710e-29	
4	8.000000e-03	2.524355e-29	2.524355e-29	0.000000e+00	
5	1.600000e-02	-1.26218e-29	-1.26218e-29	6.310887e-29	
6	3.200000e-02	1.262177e-29	1.262177e-29	0.000000e+00	
7	6.400000e-02	-9.46633e-30	-9.46633e-30	-6.31089e-30	
8	1.280000e-01	-2.05104e-29	-2.05104e-29	3.155444e-30	
9	2.560000e-01	1.577722e-30	1.577722e-30	2.366583e-30	
10	4.560000e-01	-1.57772e-30	-1.57772e-30	-1.18329e-30	
11	6.560000e-01	-7.49418e-30	-7.49418e-30	0.000000e+00	
12	8.560000e-01	0.000000e+00	0.000000e+00	0.000000e+00	
13	1.056000e+00	0.000000e+00	0.000000e+00	0.000000e+00	
14	1.256000e+00	0.000000e+00	0.000000e+00	0.000000e+00	
15	1.456000e+00	0.000000e+00	0.000000e+00	0.000000e+00	
16	1.656000e+00	0.000000e+00	0.000000e+00	0.000000e+00	
17	1.856000e+00	0.000000e+00	0.000000e+00	0.000000e+00	
18	2.056000e+00	0.000000e+00	0.000000e+00	0.000000e+00	
19	2.256000e+00	0.000000e+00	0.000000e+00	0.000000e+00	
20	2.456000e+00	0.000000e+00	0.000000e+00	0.000000e+00	
21	2.656000e+00	0.000000e+00	0.000000e+00	0.000000e+00	
22	2.856000e+00	0.000000e+00	0.000000e+00	0.000000e+00	
23	3.056000e+00	0.000000e+00	0.000000e+00	0.000000e+00	
24	3.256000e+00	0.000000e+00	0.000000e+00	0.000000e+00	
25	3.456000e+00	0.000000e+00	0.000000e+00	0.000000e+00	
26	3.656000e+00	0.000000e+00	0.000000e+00	0.000000e+00	
27	3.856000e+00	0.000000e+00	0.000000e+00	0.000000e+00	
28	4.056000e+00	0.000000e+00	0.000000e+00	0.000000e+00	
29	4.256000e+00	0.000000e+00	0.000000e+00	0.000000e+00	
30	4.456000e+00	0.000000e+00	0.000000e+00	0.000000e+00	
31	4.656000e+00	0.000000e+00	0.000000e+00	0.000000e+00	
32	4.856000e+00	0.000000e+00	0.000000e+00	0.000000e+00	
33	5.056000e+00	0.000000e+00	0.000000e+00	0.000000e+00	
34	5.256000e+00	0.000000e+00	0.000000e+00	0.000000e+00	
35	5.456000e+00	0.000000e+00	0.000000e+00	0.000000e+00	
36	5.656000e+00	0.000000e+00	0.000000e+00	0.000000e+00	
37	5.856000e+00	0.000000e+00	0.000000e+00	0.000000e+00	
38	6.056000e+00	0.000000e+00	0.000000e+00	0.000000e+00	
39	6.256000e+00	0.000000e+00	0.000000e+00	0.000000e+00	
40	6.456000e+00	0.000000e+00	0.000000e+00	0.000000e+00	
41	6.656000e+00	0.000000e+00	0.000000e+00	0.000000e+00	
42	6.856000e+00	0.000000e+00	0.000000e+00	0.000000e+00	
43	7.056000e+00	0.000000e+00	0.000000e+00	0.000000e+00	
44	7.256000e+00	0.000000e+00	0.000000e+00	0.000000e+00	
45	7.456000e+00	0.000000e+00	0.000000e+00	0.000000e+00	
46	7.656000e+00	0.000000e+00	0.000000e+00	0.000000e+00	
47	7.856000e+00	0.000000e+00	0.000000e+00	0.000000e+00	
48	8.056000e+00	0.000000e+00	0.000000e+00	0.000000e+00	
49	8.256000e+00	0.000000e+00	0.000000e+00	0.000000e+00	
50	8.456000e+00	0.000000e+00	0.000000e+00	0.000000e+00	
51	8.656000e+00	0.000000e+00	0.000000e+00	0.000000e+00	
52	8.856000e+00	0.000000e+00	0.000000e+00	0.000000e+00	
53	9.056000e+00	0.000000e+00	0.000000e+00	0.000000e+00	
54	9.256000e+00	0.000000e+00	0.000000e+00	0.000000e+00	

Index   time            a2#branch_1_3   a2#branch_1_4   a2#branch_1_5   
--------------------------------------------------------------------------------
55	9.456000e+00	0.000000e+00	0.000000e+00	0.000000e+00	
56	9.656000e+00	0.000000e+00	0.000000e+00	0.000000e+00	
57	9.856000e+00	0.000000e+00	0.000000e+00	0.000000e+00	
58	1.000000e+01	-3.94430e-31	-3.94430e-31	-7.88861e-31	

             * c:\users\dell\esim-workspace\resistors\resistors.cir
             Transient Analysis  Sat Oct 08 22:36:24  2022
--------------------------------------------------------------------------------
Index   time            a2#branch_1_6   a5#branch_1_0   a5#branch_1_1   
--------------------------------------------------------------------------------
0	0.000000e+00	0.000000e+00	0.000000e+00	0.000000e+00	
1	1.000000e-03	5.048710e-29	0.000000e+00	0.000000e+00	
2	2.000000e-03	5.048710e-29	0.000000e+00	0.000000e+00	
3	4.000000e-03	0.000000e+00	0.000000e+00	0.000000e+00	
4	8.000000e-03	2.524355e-29	0.000000e+00	0.000000e+00	
5	1.600000e-02	-1.26218e-29	0.000000e+00	0.000000e+00	
6	3.200000e-02	1.262177e-29	0.000000e+00	0.000000e+00	
7	6.400000e-02	-9.46633e-30	0.000000e+00	0.000000e+00	
8	1.280000e-01	-2.05104e-29	0.000000e+00	0.000000e+00	
9	2.560000e-01	1.577722e-30	0.000000e+00	0.000000e+00	
10	4.560000e-01	-1.57772e-30	0.000000e+00	0.000000e+00	
11	6.560000e-01	-7.49418e-30	0.000000e+00	0.000000e+00	
12	8.560000e-01	0.000000e+00	0.000000e+00	0.000000e+00	
13	1.056000e+00	0.000000e+00	0.000000e+00	0.000000e+00	
14	1.256000e+00	0.000000e+00	0.000000e+00	0.000000e+00	
15	1.456000e+00	0.000000e+00	0.000000e+00	0.000000e+00	
16	1.656000e+00	0.000000e+00	0.000000e+00	0.000000e+00	
17	1.856000e+00	0.000000e+00	0.000000e+00	0.000000e+00	
18	2.056000e+00	0.000000e+00	0.000000e+00	0.000000e+00	
19	2.256000e+00	0.000000e+00	0.000000e+00	0.000000e+00	
20	2.456000e+00	0.000000e+00	0.000000e+00	0.000000e+00	
21	2.656000e+00	0.000000e+00	0.000000e+00	0.000000e+00	
22	2.856000e+00	0.000000e+00	0.000000e+00	0.000000e+00	
23	3.056000e+00	0.000000e+00	0.000000e+00	0.000000e+00	
24	3.256000e+00	0.000000e+00	0.000000e+00	0.000000e+00	
25	3.456000e+00	0.000000e+00	0.000000e+00	0.000000e+00	
26	3.656000e+00	0.000000e+00	0.000000e+00	0.000000e+00	
27	3.856000e+00	0.000000e+00	0.000000e+00	0.000000e+00	
28	4.056000e+00	0.000000e+00	0.000000e+00	0.000000e+00	
29	4.256000e+00	0.000000e+00	0.000000e+00	0.000000e+00	
30	4.456000e+00	0.000000e+00	0.000000e+00	0.000000e+00	
31	4.656000e+00	0.000000e+00	0.000000e+00	0.000000e+00	
32	4.856000e+00	0.000000e+00	0.000000e+00	0.000000e+00	
33	5.056000e+00	0.000000e+00	0.000000e+00	0.000000e+00	
34	5.256000e+00	0.000000e+00	0.000000e+00	0.000000e+00	
35	5.456000e+00	0.000000e+00	0.000000e+00	0.000000e+00	
36	5.656000e+00	0.000000e+00	0.000000e+00	0.000000e+00	
37	5.856000e+00	0.000000e+00	0.000000e+00	0.000000e+00	
38	6.056000e+00	0.000000e+00	0.000000e+00	0.000000e+00	
39	6.256000e+00	0.000000e+00	0.000000e+00	0.000000e+00	
40	6.456000e+00	0.000000e+00	0.000000e+00	0.000000e+00	
41	6.656000e+00	0.000000e+00	0.000000e+00	0.000000e+00	
42	6.856000e+00	0.000000e+00	0.000000e+00	0.000000e+00	
43	7.056000e+00	0.000000e+00	0.000000e+00	0.000000e+00	
44	7.256000e+00	0.000000e+00	0.000000e+00	0.000000e+00	
45	7.456000e+00	0.000000e+00	0.000000e+00	0.000000e+00	
46	7.656000e+00	0.000000e+00	0.000000e+00	0.000000e+00	
47	7.856000e+00	0.000000e+00	0.000000e+00	0.000000e+00	
48	8.056000e+00	0.000000e+00	0.000000e+00	0.000000e+00	
49	8.256000e+00	0.000000e+00	0.000000e+00	0.000000e+00	
50	8.456000e+00	0.000000e+00	0.000000e+00	0.000000e+00	
51	8.656000e+00	0.000000e+00	0.000000e+00	0.000000e+00	
52	8.856000e+00	0.000000e+00	0.000000e+00	0.000000e+00	
53	9.056000e+00	0.000000e+00	0.000000e+00	0.000000e+00	
54	9.256000e+00	0.000000e+00	0.000000e+00	0.000000e+00	

Index   time            a2#branch_1_6   a5#branch_1_0   a5#branch_1_1   
--------------------------------------------------------------------------------
55	9.456000e+00	0.000000e+00	0.000000e+00	0.000000e+00	
56	9.656000e+00	0.000000e+00	0.000000e+00	0.000000e+00	
57	9.856000e+00	0.000000e+00	0.000000e+00	0.000000e+00	
58	1.000000e+01	-3.94430e-31	0.000000e+00	0.000000e+00	

             * c:\users\dell\esim-workspace\resistors\resistors.cir
             Transient Analysis  Sat Oct 08 22:36:24  2022
--------------------------------------------------------------------------------
Index   time            a5#branch_1_2   v1#branch       v2#branch       
--------------------------------------------------------------------------------
0	0.000000e+00	0.000000e+00	-1.40540e-04	6.942236e-11	
1	1.000000e-03	0.000000e+00	-1.40540e-04	6.942348e-11	
2	2.000000e-03	0.000000e+00	-1.40540e-04	6.942356e-11	
3	4.000000e-03	0.000000e+00	-1.40540e-04	6.942339e-11	
4	8.000000e-03	0.000000e+00	-1.40540e-04	6.942270e-11	
5	1.600000e-02	0.000000e+00	-1.40540e-04	6.942295e-11	
6	3.200000e-02	0.000000e+00	-1.40540e-04	6.942291e-11	
7	6.400000e-02	0.000000e+00	-1.40540e-04	6.942276e-11	
8	1.280000e-01	0.000000e+00	-1.40540e-04	6.942276e-11	
9	2.560000e-01	0.000000e+00	-1.40540e-04	6.942241e-11	
10	4.560000e-01	0.000000e+00	-1.40540e-04	6.942337e-11	
11	6.560000e-01	0.000000e+00	-1.40540e-04	6.942364e-11	
12	8.560000e-01	0.000000e+00	-1.40540e-04	6.942331e-11	
13	1.056000e+00	0.000000e+00	-1.40540e-04	6.942351e-11	
14	1.256000e+00	0.000000e+00	-1.40540e-04	6.942349e-11	
15	1.456000e+00	0.000000e+00	-1.40540e-04	6.942346e-11	
16	1.656000e+00	0.000000e+00	-1.40540e-04	6.942343e-11	
17	1.856000e+00	0.000000e+00	-1.40540e-04	6.942372e-11	
18	2.056000e+00	0.000000e+00	-1.40540e-04	6.942328e-11	
19	2.256000e+00	0.000000e+00	-1.40540e-04	6.942372e-11	
20	2.456000e+00	0.000000e+00	-1.40540e-04	6.942341e-11	
21	2.656000e+00	0.000000e+00	-1.40540e-04	6.942352e-11	
22	2.856000e+00	0.000000e+00	-1.40540e-04	6.942335e-11	
23	3.056000e+00	0.000000e+00	-1.40540e-04	6.942353e-11	
24	3.256000e+00	0.000000e+00	-1.40540e-04	6.942341e-11	
25	3.456000e+00	0.000000e+00	-1.40540e-04	6.942355e-11	
26	3.656000e+00	0.000000e+00	-1.40540e-04	6.942347e-11	
27	3.856000e+00	0.000000e+00	-1.40540e-04	6.942328e-11	
28	4.056000e+00	0.000000e+00	-1.40540e-04	6.942347e-11	
29	4.256000e+00	0.000000e+00	-1.40540e-04	6.942350e-11	
30	4.456000e+00	0.000000e+00	-1.40540e-04	6.942347e-11	
31	4.656000e+00	0.000000e+00	-1.40540e-04	6.942349e-11	
32	4.856000e+00	0.000000e+00	-1.40540e-04	6.942327e-11	
33	5.056000e+00	0.000000e+00	-1.40540e-04	6.942350e-11	
34	5.256000e+00	0.000000e+00	-1.40540e-04	6.942344e-11	
35	5.456000e+00	0.000000e+00	-1.40540e-04	6.942350e-11	
36	5.656000e+00	0.000000e+00	-1.40540e-04	6.942344e-11	
37	5.856000e+00	0.000000e+00	-1.40540e-04	6.942328e-11	
38	6.056000e+00	0.000000e+00	-1.40540e-04	6.942343e-11	
39	6.256000e+00	0.000000e+00	-1.40540e-04	6.942356e-11	
40	6.456000e+00	0.000000e+00	-1.40540e-04	6.942341e-11	
41	6.656000e+00	0.000000e+00	-1.40540e-04	6.942349e-11	
42	6.856000e+00	0.000000e+00	-1.40540e-04	6.942342e-11	
43	7.056000e+00	0.000000e+00	-1.40540e-04	6.942325e-11	
44	7.256000e+00	0.000000e+00	-1.40540e-04	6.942329e-11	
45	7.456000e+00	0.000000e+00	-1.40540e-04	6.942350e-11	
46	7.656000e+00	0.000000e+00	-1.40540e-04	6.942363e-11	
47	7.856000e+00	0.000000e+00	-1.40540e-04	6.942322e-11	
48	8.056000e+00	0.000000e+00	-1.40540e-04	6.942363e-11	
49	8.256000e+00	0.000000e+00	-1.40540e-04	6.942350e-11	
50	8.456000e+00	0.000000e+00	-1.40540e-04	6.942364e-11	
51	8.656000e+00	0.000000e+00	-1.40540e-04	6.942344e-11	
52	8.856000e+00	0.000000e+00	-1.40540e-04	6.942324e-11	
53	9.056000e+00	0.000000e+00	-1.40540e-04	6.942350e-11	
54	9.256000e+00	0.000000e+00	-1.40540e-04	6.942347e-11	

Index   time            a5#branch_1_2   v1#branch       v2#branch       
--------------------------------------------------------------------------------
55	9.456000e+00	0.000000e+00	-1.40540e-04	6.942326e-11	
56	9.656000e+00	0.000000e+00	-1.40540e-04	6.942327e-11	
57	9.856000e+00	0.000000e+00	-1.40540e-04	6.942352e-11	
58	1.000000e+01	0.000000e+00	-1.40540e-04	6.942281e-11	

             * c:\users\dell\esim-workspace\resistors\resistors.cir
             Transient Analysis  Sat Oct 08 22:36:24  2022
--------------------------------------------------------------------------------
Index   time            v3#branch       
--------------------------------------------------------------------------------
0	0.000000e+00	0.000000e+00	
1	1.000000e-03	-5.29304e-19	
2	2.000000e-03	-6.43523e-19	
3	4.000000e-03	5.540029e-19	
4	8.000000e-03	2.765066e-21	
5	1.600000e-02	-3.63048e-19	
6	3.200000e-02	5.753651e-19	
7	6.400000e-02	-6.05383e-19	
8	1.280000e-01	5.856210e-19	
9	2.560000e-01	-6.02806e-19	
10	4.560000e-01	6.052452e-19	
11	6.560000e-01	-5.83602e-19	
12	8.560000e-01	5.699306e-19	
13	1.056000e+00	-5.53893e-19	
14	1.256000e+00	5.402036e-19	
15	1.456000e+00	-5.28852e-19	
16	1.656000e+00	5.135337e-19	
17	1.856000e+00	-5.03346e-19	
18	2.056000e+00	4.964678e-19	
19	2.256000e+00	-4.82342e-19	
20	2.456000e+00	4.687214e-19	
21	2.656000e+00	-4.58410e-19	
22	2.856000e+00	4.483936e-19	
23	3.056000e+00	-4.46391e-19	
24	3.256000e+00	4.438497e-19	
25	3.456000e+00	-4.42679e-19	
26	3.656000e+00	4.422613e-19	
27	3.856000e+00	-4.42235e-19	
28	4.056000e+00	4.444751e-19	
29	4.256000e+00	-4.48822e-19	
30	4.456000e+00	4.474733e-19	
31	4.656000e+00	-4.39960e-19	
32	4.856000e+00	4.440878e-19	
33	5.056000e+00	-4.39456e-19	
34	5.256000e+00	4.322779e-19	
35	5.456000e+00	-4.38100e-19	
36	5.656000e+00	4.301926e-19	
37	5.856000e+00	-4.15640e-19	
38	6.056000e+00	4.083409e-19	
39	6.256000e+00	-4.02272e-19	
40	6.456000e+00	3.996288e-19	
41	6.656000e+00	-3.98047e-19	
42	6.856000e+00	4.035772e-19	
43	7.056000e+00	-4.07271e-19	
44	7.256000e+00	3.982915e-19	
45	7.456000e+00	-3.93890e-19	
46	7.656000e+00	3.922973e-19	
47	7.856000e+00	-3.88010e-19	
48	8.056000e+00	3.917430e-19	
49	8.256000e+00	-3.94293e-19	
50	8.456000e+00	3.954632e-19	
51	8.656000e+00	-3.93943e-19	
52	8.856000e+00	3.898585e-19	
53	9.056000e+00	-3.87394e-19	
54	9.256000e+00	3.828789e-19	

Index   time            v3#branch       
--------------------------------------------------------------------------------
55	9.456000e+00	-3.71128e-19	
56	9.656000e+00	3.598213e-19	
57	9.856000e+00	-3.53496e-19	
58	1.000000e+01	3.683887e-19	
